(0.000000) vcan0 048#FFFFFFFFFFFFFFFF
(0.000000) vcan0 056#FFFFFFFFFFFFFFFF
(0.000000) vcan0 064#FFFFFFFFFFFFFFFF
(0.000000) vcan0 072#FFFFFFFFFFFFFFFF
(0.000000) vcan0 080#FFFFFFFFFFFFFFFF
(0.000000) vcan0 088#FFFFFFFFFFFFFFFF
(0.000000) vcan0 096#FFFFFFFFFFFFFFFF
(0.000000) vcan0 104#FFFFFFFFFFFFFFFF
(0.000000) vcan0 112#FFFFFFFFFFFFFFFF
(0.000000) vcan0 120#FFFFFFFFFFFFFFFF
(0.000000) vcan0 128#FFFFFFFFFFFFFFFF
(0.000000) vcan0 136#FFFFFFFFFFFFFFFF
(0.000000) vcan0 144#FFFFFFFFFFFFFFFF
(0.000000) vcan0 152#FFFFFFFFFFFFFFFF
(0.000000) vcan0 160#FFFFFFFFFFFFFFFF
(0.000000) vcan0 168#FFFFFFFFFFFFFFFF
(0.000000) vcan0 176#FFFFFFFFFFFFFFFF
(0.000000) vcan0 184#FFFFFFFFFFFFFFFF
(0.000000) vcan0 192#FFFFFFFFFFFFFFFF
(0.000000) vcan0 200#FFFFFFFFFFFFFFFF
(0.000000) vcan0 208#FFFFFFFFFFFFFFFF
(0.000000) vcan0 216#FFFFFFFFFFFFFFFF
(0.000000) vcan0 224#FFFFFFFFFFFFFFFF
(0.000000) vcan0 232#FFFFFFFFFFFFFFFF
(0.000000) vcan0 240#FFFFFFFFFFFFFFFF
(0.000000) vcan0 248#FFFFFFFFFFFFFFFF
(0.000000) vcan0 256#FFFFFFFFFFFFFFFF
(0.000000) vcan0 264#FFFFFFFFFFFFFFFF
(0.000000) vcan0 272#FFFFFFFFFFFFFFFF
(0.000000) vcan0 280#FFFFFFFFFFFFFFFF
(0.000000) vcan0 288#FFFFFFFFFFFFFFFF
(0.000000) vcan0 296#FFFFFFFFFFFFFFFF
(0.000000) vcan0 304#FFFFFFFFFFFFFFFF
(0.000000) vcan0 312#FFFFFFFFFFFFFFFF
(0.000000) vcan0 320#FFFFFFFFFFFFFFFF
(0.000000) vcan0 328#FFFFFFFFFFFFFFFF
(0.000000) vcan0 336#FFFFFFFFFFFFFFFF
(0.000000) vcan0 344#FFFFFFFFFFFFFFFF
(0.000000) vcan0 352#FFFFFFFFFFFFFFFF
(0.000000) vcan0 360#FFFFFFFFFFFFFFFF
(0.000000) vcan0 368#FFFFFFFFFFFFFFFF
(0.000000) vcan0 376#FFFFFFFFFFFFFFFF
(0.000000) vcan0 384#FFFFFFFFFFFFFFFF
(0.000000) vcan0 392#FFFFFFFFFFFFFFFF
(0.000000) vcan0 400#FFFFFFFFFFFFFFFF
(0.000000) vcan0 408#FFFFFFFFFFFFFFFF
(0.000000) vcan0 416#FFFFFFFFFFFFFFFF
(0.000000) vcan0 424#FFFFFFFFFFFFFFFF
(0.100000) vcan0 048#FFF00FFFFFF00FFF
(0.100000) vcan0 056#FF8001FFFF8001FF
(0.100000) vcan0 064#FF0000FFFF0000FF
(0.100000) vcan0 072#FC0FF03FFC0FF03F
(0.100000) vcan0 080#F83FFC1FF83FFC1F
(0.100000) vcan0 088#F0FFFF0FF0FFFF0F
(0.100000) vcan0 096#E1FFFF87E1FFFF87
(0.100000) vcan0 104#E3FFFFC7E3FFFFC7
(0.100000) vcan0 112#C7FFFFE3C7FFFFE3
(0.100000) vcan0 120#87FFFFE187FFFFE1
(0.100000) vcan0 128#8FFFFFF18FFFFFF1
(0.100000) vcan0 136#8FFFFFF81FFFFFF1
(0.100000) vcan0 144#1FFFFFF81FFFFFF8
(0.100000) vcan0 152#1FFFFFFC3FFFFFF8
(0.100000) vcan0 160#1FFFFFFE7FFFFFF8
(0.100000) vcan0 168#1FFFFFFFFFFFFFF8
(0.100000) vcan0 176#1FFFFFFFFFFFFFF8
(0.100000) vcan0 184#1FFFFFFFFFFFFFF8
(0.100000) vcan0 192#1FFFFFFFFFFFFFF8
(0.100000) vcan0 200#1FFFFFFFFFFFFFF8
(0.100000) vcan0 208#8FFFFFFFFFFFFFF1
(0.100000) vcan0 216#8FFFFFFFFFFFFFF1
(0.100000) vcan0 224#87FFFFFFFFFFFFE1
(0.100000) vcan0 232#C7FFFFFFFFFFFFE3
(0.100000) vcan0 240#C3FFFFFFFFFFFFC3
(0.100000) vcan0 248#E1FFFFFFFFFFFF87
(0.100000) vcan0 256#F0FFFFFFFFFFFF0F
(0.100000) vcan0 264#F87FFFFFFFFFFE1F
(0.100000) vcan0 272#FC3FFFFFFFFFFC3F
(0.100000) vcan0 280#FF0FFFFFFFFFF0FF
(0.100000) vcan0 288#FF87FFFFFFFFE1FF
(0.100000) vcan0 296#FFC3FFFFFFFFC3FF
(0.100000) vcan0 304#FFE1FFFFFFFF87FF
(0.100000) vcan0 312#FFF8FFFFFFFF1FFF
(0.100000) vcan0 320#FFFC3FFFFFFC3FFF
(0.100000) vcan0 328#FFFE1FFFFFF87FFF
(0.100000) vcan0 336#FFFF0FFFFFF0FFFF
(0.100000) vcan0 344#FFFFC7FFFFE3FFFF
(0.100000) vcan0 352#FFFFE1FFFF87FFFF
(0.100000) vcan0 360#FFFFF0FFFF0FFFFF
(0.100000) vcan0 368#FFFFF87FFE1FFFFF
(0.100000) vcan0 376#FFFFFE3FFC7FFFFF
(0.100000) vcan0 384#FFFFFF1FF8FFFFFF
(0.100000) vcan0 392#FFFFFF87E1FFFFFF
(0.100000) vcan0 400#FFFFFFC3C3FFFFFF
(0.100000) vcan0 408#FFFFFFE187FFFFFF
(0.100000) vcan0 416#FFFFFFF81FFFFFFF
(0.100000) vcan0 424#FFFFFFFC3FFFFFFF
(1.000000) vcan0 048#FFFFFFFFFFFFFFFF
(1.000000) vcan0 056#FFFFFFFFFFFFFFFF
(1.000000) vcan0 064#FFFFFFFFFFFFFFFF
(1.000000) vcan0 072#FFFFFFFFFFFFFFFF
(1.000000) vcan0 080#FFFFFFFFFFFFFFFF
(1.000000) vcan0 088#FFFFFFFFFFFFFFFF
(1.000000) vcan0 096#FFFFFFFFFFFFFFFF
(1.000000) vcan0 104#FFFFFFFFFFFFFFFF
(1.000000) vcan0 112#FFFFFFFFFFFFFFFF
(1.000000) vcan0 120#FFFFFFFFFFFFFFFF
(1.000000) vcan0 128#FFFFFFFFFFFFFFFF
(1.000000) vcan0 136#FFFFFFFFFFFFFFFF
(1.000000) vcan0 144#FFFFFFFFFFFFFFFF
(1.000000) vcan0 152#FFFFFFFFFFFFFFFF
(1.000000) vcan0 160#FFFFFFFFFFFFFFFF
(1.000000) vcan0 168#FFFFFFFFFFFFFFFF
(1.000000) vcan0 176#FFFFFFFFFFFFFFFF
(1.000000) vcan0 184#FFFFFFFFFFFFFFFF
(1.000000) vcan0 192#FFFFFFFFFFFFFFFF
(1.000000) vcan0 200#FFFFFFFFFFFFFFFF
(1.000000) vcan0 208#FFFFFFFFFFFFFFFF
(1.000000) vcan0 216#FFFFFFFFFFFFFFFF
(1.000000) vcan0 224#FFFFFFFFFFFFFFFF
(1.000000) vcan0 232#FFFFFFFFFFFFFFFF
(1.000000) vcan0 240#FFFFFFFFFFFFFFFF
(1.000000) vcan0 248#FFFFFFFFFFFFFFFF
(1.000000) vcan0 256#FFFFFFFFFFFFFFFF
(1.000000) vcan0 264#FFFFFFFFFFFFFFFF
(1.000000) vcan0 272#FFFFFFFFFFFFFFFF
(1.000000) vcan0 280#FFFFFFFFFFFFFFFF
(1.000000) vcan0 288#FFFFFFFFFFFFFFFF
(1.000000) vcan0 296#FFFFFFFFFFFFFFFF
(1.000000) vcan0 304#FFFFFFFFFFFFFFFF
(1.000000) vcan0 312#FFFFFFFFFFFFFFFF
(1.000000) vcan0 320#FFFFFFFFFFFFFFFF
(1.000000) vcan0 328#FFFFFFFFFFFFFFFF
(1.000000) vcan0 336#FFFFFFFFFFFFFFFF
(1.000000) vcan0 344#FFFFFFFFFFFFFFFF
(1.000000) vcan0 352#FFFFFFFFFFFFFFFF
(1.000000) vcan0 360#FFFFFFFFFFFFFFFF
(1.000000) vcan0 368#FFFFFFFFFFFFFFFF
(1.000000) vcan0 376#FFFFFFFFFFFFFFFF
(1.000000) vcan0 384#FFFFFFFFFFFFFFFF
(1.000000) vcan0 392#FFFFFFFFFFFFFFFF
(1.000000) vcan0 400#FFFFFFFFFFFFFFFF
(1.000000) vcan0 408#FFFFFFFFFFFFFFFF
(1.000000) vcan0 416#FFFFFFFFFFFFFFFF
(1.000000) vcan0 424#FFFFFFFFFFFFFFFF
(1.100000) vcan0 048#FFF00FFFFFF00FFF
(1.100000) vcan0 056#FF8001FFFF8001FF
(1.100000) vcan0 064#FF0000FFFF0000FF
(1.100000) vcan0 072#FC0FF03FFC0FF03F
(1.100000) vcan0 080#F83FFC1FF83FFC1F
(1.100000) vcan0 088#F0FFFF0FF0FFFF0F
(1.100000) vcan0 096#E1FFFF87E1FFFF87
(1.100000) vcan0 104#E3FFFFC7E3FFFFC7
(1.100000) vcan0 112#C7FFFFE3C7FFFFE3
(1.100000) vcan0 120#87FFFFE187FFFFE1
(1.100000) vcan0 128#8FFFFFF18FFFFFF1
(1.100000) vcan0 136#8FFFFFF81FFFFFF1
(1.100000) vcan0 144#1FFFFFF81FFFFFF8
(1.100000) vcan0 152#1FFFFFFC3FFFFFF8
(1.100000) vcan0 160#1FFFFFFE7FFFFFF8
(1.100000) vcan0 168#1FFFFFFFFFFFFFF8
(1.100000) vcan0 176#1FFFBFFEFFFFFFF8
(1.100000) vcan0 184#1FFF5FFEFFFFFFF8
(1.100000) vcan0 192#1FFEEA72A71C7FF8
(1.100000) vcan0 200#1FFEE9AC9AEFBFF8
(1.100000) vcan0 208#8FFE0BAEBE0C3FF1
(1.100000) vcan0 216#8FFEEBACBEFBBFF1
(1.100000) vcan0 224#87FEEBB2BF1C3FE1
(1.100000) vcan0 232#C7FFFFFFFFFFFFE3
(1.100000) vcan0 240#C3FFFFFFFFFFFFC3
(1.100000) vcan0 248#E1FFFFFF7FFFFF87
(1.100000) vcan0 256#F0FFFFFE3FFFFF0F
(1.100000) vcan0 264#F87FFFFF7FFFFE1F
(1.100000) vcan0 272#FC3FFFFFFFFFFC3F
(1.100000) vcan0 280#FF0FFFFFFFFFF0FF
(1.100000) vcan0 288#FF87FE39CF7FE1FF
(1.100000) vcan0 296#FFC3FDDDEFFFC3FF
(1.100000) vcan0 304#FFE1FDDDEE7F87FF
(1.100000) vcan0 312#FFF8FDDDEF7F1FFF
(1.100000) vcan0 320#FFFC3DDDEF7C3FFF
(1.100000) vcan0 328#FFFE1DDDEF787FFF
(1.100000) vcan0 336#FFFF0E38C630FFFF
(1.100000) vcan0 344#FFFFC7FFFFE3FFFF
(1.100000) vcan0 352#FFFFE1FFFF87FFFF
(1.100000) vcan0 360#FFFFF0FFFF0FFFFF
(1.100000) vcan0 368#FFFFF87FFE1FFFFF
(1.100000) vcan0 376#FFFFFE3FFC7FFFFF
(1.100000) vcan0 384#FFFFFF1FF8FFFFFF
(1.100000) vcan0 392#FFFFFF87E1FFFFFF
(1.100000) vcan0 400#FFFFFFC3C3FFFFFF
(1.100000) vcan0 408#FFFFFFE187FFFFFF
(1.100000) vcan0 416#FFFFFFF81FFFFFFF
(1.100000) vcan0 424#FFFFFFFC3FFFFFFF
(2.000000) vcan0 048#FFFFFFFFFFFFFFFF
(2.000000) vcan0 056#FFFFFFFFFFFFFFFF
(2.000000) vcan0 064#FFFFFFFFFFFFFFFF
(2.000000) vcan0 072#FFFFFFFFFFFFFFFF
(2.000000) vcan0 080#FFFFFFFFFFFFFFFF
(2.000000) vcan0 088#FFFFFFFFFFFFFFFF
(2.000000) vcan0 096#FFFFFFFFFFFFFFFF
(2.000000) vcan0 104#FFFFFFFFFFFFFFFF
(2.000000) vcan0 112#FFFFFFFFFFFFFFFF
(2.000000) vcan0 120#FFFFFFFFFFFFFFFF
(2.000000) vcan0 128#FFFFFFFFFFFFFFFF
(2.000000) vcan0 136#FFFFFFFFFFFFFFFF
(2.000000) vcan0 144#FFFFFFFFFFFFFFFF
(2.000000) vcan0 152#FFFFFFFFFFFFFFFF
(2.000000) vcan0 160#FFFFFFFFFFFFFFFF
(2.000000) vcan0 168#FFFFFFFFFFFFFFFF
(2.000000) vcan0 176#FFFFFFFFFFFFFFFF
(2.000000) vcan0 184#FFFFFFFFFFFFFFFF
(2.000000) vcan0 192#FFFFFFFFFFFFFFFF
(2.000000) vcan0 200#FFFFFFFFFFFFFFFF
(2.000000) vcan0 208#FFFFFFFFFFFFFFFF
(2.000000) vcan0 216#FFFFFFFFFFFFFFFF
(2.000000) vcan0 224#FFFFFFFFFFFFFFFF
(2.000000) vcan0 232#FFFFFFFFFFFFFFFF
(2.000000) vcan0 240#FFFFFFFFFFFFFFFF
(2.000000) vcan0 248#FFFFFFFFFFFFFFFF
(2.000000) vcan0 256#FFFFFFFFFFFFFFFF
(2.000000) vcan0 264#FFFFFFFFFFFFFFFF
(2.000000) vcan0 272#FFFFFFFFFFFFFFFF
(2.000000) vcan0 280#FFFFFFFFFFFFFFFF
(2.000000) vcan0 288#FFFFFFFFFFFFFFFF
(2.000000) vcan0 296#FFFFFFFFFFFFFFFF
(2.000000) vcan0 304#FFFFFFFFFFFFFFFF
(2.000000) vcan0 312#FFFFFFFFFFFFFFFF
(2.000000) vcan0 320#FFFFFFFFFFFFFFFF
(2.000000) vcan0 328#FFFFFFFFFFFFFFFF
(2.000000) vcan0 336#FFFFFFFFFFFFFFFF
(2.000000) vcan0 344#FFFFFFFFFFFFFFFF
(2.000000) vcan0 352#FFFFFFFFFFFFFFFF
(2.000000) vcan0 360#FFFFFFFFFFFFFFFF
(2.000000) vcan0 368#FFFFFFFFFFFFFFFF
(2.000000) vcan0 376#FFFFFFFFFFFFFFFF
(2.000000) vcan0 384#FFFFFFFFFFFFFFFF
(2.000000) vcan0 392#FFFFFFFFFFFFFFFF
(2.000000) vcan0 400#FFFFFFFFFFFFFFFF
(2.000000) vcan0 408#FFFFFFFFFFFFFFFF
(2.000000) vcan0 416#FFFFFFFFFFFFFFFF
(2.000000) vcan0 424#FFFFFFFFFFFFFFFF
(2.100000) vcan0 048#FFF00FFFFFF00FFF
(2.100000) vcan0 056#FF8001FFFF8001FF
(2.100000) vcan0 064#FF0000FFFF0000FF
(2.100000) vcan0 072#FC0FF03FFC0FF03F
(2.100000) vcan0 080#F83FFC1FF83FFC1F
(2.100000) vcan0 088#F0FFFF0FF0FFFF0F
(2.100000) vcan0 096#E1FFFF87E1FFFF87
(2.100000) vcan0 104#E3FFFFC7E3FFFFC7
(2.100000) vcan0 112#C7FFFFE3C7FFFFE3
(2.100000) vcan0 120#87FFFFE187FFFFE1
(2.100000) vcan0 128#8FFFFFF18FFFFFF1
(2.100000) vcan0 136#8FFFFFF81FFFFFF1
(2.100000) vcan0 144#1FFFFFF81FFFFFF8
(2.100000) vcan0 152#1FFFFFFC3FFFFFF8
(2.100000) vcan0 160#1FFFFFFE7FFFFFF8
(2.100000) vcan0 168#1FFFFFFFFFFFFFF8
(2.100000) vcan0 176#1FBFFEFFFF7FFFF8
(2.100000) vcan0 184#1FBFFFFFFF7FFFF8
(2.100000) vcan0 192#1FA71CE9C61C69F8
(2.100000) vcan0 200#1F9AEEE6FB7BA6F8
(2.100000) vcan0 208#8FBA0EEFC3782EF1
(2.100000) vcan0 216#8FBAFEEFBB6BEEF1
(2.100000) vcan0 224#87BB1C6FC39C6EE1
(2.100000) vcan0 232#C7FFFFFFFFFFFFE3
(2.100000) vcan0 240#C3FFFFFFFFFFFFC3
(2.100000) vcan0 248#E1FFFFFFFFFFFF87
(2.100000) vcan0 256#F0FFFFFFFFFFFF0F
(2.100000) vcan0 264#F87FFFFFFFFFFE1F
(2.100000) vcan0 272#FC3FFFFFFFFFFC3F
(2.100000) vcan0 280#FF0FFFFFFFFFF0FF
(2.100000) vcan0 288#FF87FFFFFFFFE1FF
(2.100000) vcan0 296#FFC3FFFFFFFFC3FF
(2.100000) vcan0 304#FFE1FFFFFFFF87FF
(2.100000) vcan0 312#FFF8FFFFFFFF1FFF
(2.100000) vcan0 320#FFFC3FFFFFFC3FFF
(2.100000) vcan0 328#FFFE1FFFFFF87FFF
(2.100000) vcan0 336#FFFF0FFFFFF0FFFF
(2.100000) vcan0 344#FFFFC7FFFFE3FFFF
(2.100000) vcan0 352#FFFFE1FFFF87FFFF
(2.100000) vcan0 360#FFFFF0FFFF0FFFFF
(2.100000) vcan0 368#FFFFF87FFE1FFFFF
(2.100000) vcan0 376#FFFFFE3FFC7FFFFF
(2.100000) vcan0 384#FFFFFF1FF8FFFFFF
(2.100000) vcan0 392#FFFFFF87E1FFFFFF
(2.100000) vcan0 400#FFFFFFC3C3FFFFFF
(2.100000) vcan0 408#FFFFFFE187FFFFFF
(2.100000) vcan0 416#FFFFFFF81FFFFFFF
(2.100000) vcan0 424#FFFFFFFC3FFFFFFF
(3.000000) vcan0 048#FFFFFFFFFFFFFFFF
(3.000000) vcan0 056#FFFFFFFFFFFFFFFF
(3.000000) vcan0 064#FFFFFFFFFFFFFFFF
(3.000000) vcan0 072#FFFFFFFFFFFFFFFF
(3.000000) vcan0 080#FFFFFFFFFFFFFFFF
(3.000000) vcan0 088#FFFFFFFFFFFFFFFF
(3.000000) vcan0 096#FFFFFFFFFFFFFFFF
(3.000000) vcan0 104#FFFFFFFFFFFFFFFF
(3.000000) vcan0 112#FFFFFFFFFFFFFFFF
(3.000000) vcan0 120#FFFFFFFFFFFFFFFF
(3.000000) vcan0 128#FFFFFFFFFFFFFFFF
(3.000000) vcan0 136#FFFFFFFFFFFFFFFF
(3.000000) vcan0 144#FFFFFFFFFFFFFFFF
(3.000000) vcan0 152#FFFFFFFFFFFFFFFF
(3.000000) vcan0 160#FFFFFFFFFFFFFFFF
(3.000000) vcan0 168#FFFFFFFFFFFFFFFF
(3.000000) vcan0 176#FFFFFFFFFFFFFFFF
(3.000000) vcan0 184#FFFFFFFFFFFFFFFF
(3.000000) vcan0 192#FFFFFFFFFFFFFFFF
(3.000000) vcan0 200#FFFFFFFFFFFFFFFF
(3.000000) vcan0 208#FFFFFFFFFFFFFFFF
(3.000000) vcan0 216#FFFFFFFFFFFFFFFF
(3.000000) vcan0 224#FFFFFFFFFFFFFFFF
(3.000000) vcan0 232#FFFFFFFFFFFFFFFF
(3.000000) vcan0 240#FFFFFFFFFFFFFFFF
(3.000000) vcan0 248#FFFFFFFFFFFFFFFF
(3.000000) vcan0 256#FFFFFFFFFFFFFFFF
(3.000000) vcan0 264#FFFFFFFFFFFFFFFF
(3.000000) vcan0 272#FFFFFFFFFFFFFFFF
(3.000000) vcan0 280#FFFFFFFFFFFFFFFF
(3.000000) vcan0 288#FFFFFFFFFFFFFFFF
(3.000000) vcan0 296#FFFFFFFFFFFFFFFF
(3.000000) vcan0 304#FFFFFFFFFFFFFFFF
(3.000000) vcan0 312#FFFFFFFFFFFFFFFF
(3.000000) vcan0 320#FFFFFFFFFFFFFFFF
(3.000000) vcan0 328#FFFFFFFFFFFFFFFF
(3.000000) vcan0 336#FFFFFFFFFFFFFFFF
(3.000000) vcan0 344#FFFFFFFFFFFFFFFF
(3.000000) vcan0 352#FFFFFFFFFFFFFFFF
(3.000000) vcan0 360#FFFFFFFFFFFFFFFF
(3.000000) vcan0 368#FFFFFFFFFFFFFFFF
(3.000000) vcan0 376#FFFFFFFFFFFFFFFF
(3.000000) vcan0 384#FFFFFFFFFFFFFFFF
(3.000000) vcan0 392#FFFFFFFFFFFFFFFF
(3.000000) vcan0 400#FFFFFFFFFFFFFFFF
(3.000000) vcan0 408#FFFFFFFFFFFFFFFF
(3.000000) vcan0 416#FFFFFFFFFFFFFFFF
(3.000000) vcan0 424#FFFFFFFFFFFFFFFF
